
T0590 000:323 SEGGER J-Link V4.92 Log File (0001ms, 0280ms total)
T0590 000:323 DLL Compiled: Sep 30 2014 09:33:42 (0001ms, 0280ms total)
T0590 000:323 Logging started @ 2022-09-26 14:50 (0001ms, 0280ms total)
T0590 000:324 JLINK_SetWarnOutHandler(...) (0000ms, 0280ms total)
T0590 000:324 JLINK_OpenEx(...)
Firmware: J-Link ARM-OB STM32 compiled Aug 22 2012 19:52:04
Hardware: V7.00
S/N: 20090928
Feature(s): RDI,FlashDL,FlashBP,JFlash,GDBFull  returns O.K. (0272ms, 0552ms total)
T0590 000:596 JLINK_SetErrorOutHandler(...) (0000ms, 0552ms total)
T0590 000:596 JLINK_ExecCommand("ProjectFile = "C:\Users\king\Desktop\8-16ÖÕ¼«2ºÅ\Project\RVMDK£¨uv5£©\JLinkSettings.ini"", ...)  returns 0x00 (0002ms, 0554ms total)
T0590 000:630 JLINK_ExecCommand("Device = STM32F103VE", ...)Device "STM32F103VE" selected (512 KB flash, 64 KB RAM).  returns 0x00 (0020ms, 0574ms total)
T0590 000:650 JLINK_ExecCommand("DisableConnectionTimeout", ...)  returns 0x01 (0000ms, 0574ms total)
T0590 000:650 JLINK_GetHardwareVersion()  returns 0x11170 (0000ms, 0574ms total)
T0590 000:650 JLINK_GetDLLVersion()  returns 49200 (0000ms, 0574ms total)
T0590 000:650 JLINK_GetFirmwareString(...) (0000ms, 0574ms total)
T0590 000:678 JLINK_GetDLLVersion()  returns 49200 (0001ms, 0575ms total)
T0590 000:679 JLINK_GetCompileDateTime() (0000ms, 0575ms total)
T0590 000:683 JLINK_GetFirmwareString(...) (0001ms, 0576ms total)
T0590 000:688 JLINK_GetHardwareVersion()  returns 0x11170 (0000ms, 0576ms total)
T0590 000:706 JLINK_TIF_Select(JLINKARM_TIF_SWD)  returns 0x00 (0001ms, 0577ms total)
T0590 000:707 JLINK_SetSpeed(5000) (0001ms, 0578ms total)
T0590 000:708 JLINK_GetId() >0x108 TIF>Found SWD-DP with ID 0x1BA01477 >0x0D TIF> >0x28 TIF> >0x0D TIF> >0x28 TIF> >0x0D TIF> >0x21 TIF> >0x0D TIF> >0x28 TIF> >0x0D TIF> >0x28 TIF> >0x0D TIF> >0x28 TIF> >0x0D TIF> >0x21 TIF> >0x0D TIF> >0x21 TIF> >0x0D TIF> >0x28 TIF> >0x0D TIF> >0x21 TIF> >0x0D TIF> >0x21 TIF> >0x108 TIF>Found SWD-DP with ID 0x1BA01477 >0x0D TIF> >0x21 TIF> >0x0D TIF> >0x28 TIF> >0x0D TIF> >0x28 TIF> >0x0D TIF> >0x21 TIF> >0x0D TIF> >0x28 TIF> >0x0D TIF> >0x21 TIF> >0x0D TIF> >0x21 TIF>
 >0x0D TIF> >0x21 TIF> >0x0D TIF> >0x21 TIF> >0x0D TIF> >0x28 TIF> >0x0D TIF> >0x28 TIF> >0x0D TIF> >0x21 TIF> >0x0D TIF> >0x28 TIF> >0x0D TIF> >0x28 TIF> >0x0D TIF> >0x28 TIF> >0x0D TIF> >0x21 TIF> >0x0D TIF> >0x21 TIF> >0x0D TIF> >0x28 TIF> >0x0D TIF> >0x21 TIF> >0x0D TIF> >0x21 TIF>Found Cortex-M3 r1p1, Little endian. -- CPU_WriteMem(4 bytes @ 0xE0002000) -- CPU_ReadMem(4 bytes @ 0xE000EDF0) -- CPU_ReadMem(4 bytes @ 0xE0002000)FPUnit: 6 code (BP) slots and 2 literal slots
 -- CPU_ReadMem(4 bytes @ 0xE000EDFC) -- CPU_ReadMem(4 bytes @ 0xE0001000) -- CPU_WriteMem(4 bytes @ 0xE0001000) -- CPU_ReadMem(4 bytes @ 0xE000ED88) -- CPU_WriteMem(4 bytes @ 0xE000ED88) -- CPU_ReadMem(4 bytes @ 0xE000ED88) -- CPU_WriteMem(4 bytes @ 0xE000ED88) -- CPU_ReadMem(4 bytes @ 0xE00FF010)TPIU fitted. -- CPU_ReadMem(4 bytes @ 0xE00FF014)ETM fitted. -- CPU_ReadMem(4 bytes @ 0xE00FF018) >0x0D TIF> >0x21 TIF>  returns 0x1BA01477 (0058ms, 0636ms total)
T0590 000:766 JLINK_GetDLLVersion()  returns 49200 (0000ms, 0636ms total)
T0590 000:766 JLINK_CORE_GetFound()  returns 0x30000FF (0000ms, 0636ms total)
T0590 000:770 JLINK_ReadMem (0xE00FF000, 0x0020 Bytes, ...) -- CPU is running -- CPU_ReadMem(32 bytes @ 0xE00FF000) - Data: 03 F0 F0 FF 03 20 F0 FF 03 30 F0 FF 03 10 F0 FF ...  returns 0x00 (0001ms, 0637ms total)
T0590 000:771 JLINK_ReadMem (0xE000EFF0, 0x0010 Bytes, ...) -- CPU is running -- CPU_ReadMem(16 bytes @ 0xE000EFF0) - Data: 0D 00 00 00 E0 00 00 00 05 00 00 00 B1 00 00 00  returns 0x00 (0001ms, 0638ms total)
T0590 000:772 JLINK_ReadMem (0xE000EFD0, 0x0020 Bytes, ...) -- CPU is running -- CPU_ReadMem(32 bytes @ 0xE000EFD0) - Data: 04 00 00 00 00 00 00 00 00 00 00 00 00 00 00 00 ...  returns 0x00 (0001ms, 0639ms total)
T0590 000:773 JLINK_ReadMem (0xE0001FF0, 0x0010 Bytes, ...) -- CPU is running -- CPU_ReadMem(16 bytes @ 0xE0001FF0) - Data: 0D 00 00 00 E0 00 00 00 05 00 00 00 B1 00 00 00  returns 0x00 (0002ms, 0641ms total)
T0590 000:775 JLINK_ReadMem (0xE0001FD0, 0x0020 Bytes, ...) -- CPU is running -- CPU_ReadMem(32 bytes @ 0xE0001FD0) - Data: 04 00 00 00 00 00 00 00 00 00 00 00 00 00 00 00 ...  returns 0x00 (0001ms, 0642ms total)
T0590 000:776 JLINK_ReadMem (0xE0002FF0, 0x0010 Bytes, ...) -- CPU is running -- CPU_ReadMem(16 bytes @ 0xE0002FF0) - Data: 0D 00 00 00 E0 00 00 00 05 00 00 00 B1 00 00 00  returns 0x00 (0001ms, 0643ms total)
T0590 000:777 JLINK_ReadMem (0xE0002FD0, 0x0020 Bytes, ...) -- CPU is running -- CPU_ReadMem(32 bytes @ 0xE0002FD0) - Data: 04 00 00 00 00 00 00 00 00 00 00 00 00 00 00 00 ...  returns 0x00 (0002ms, 0645ms total)
T0590 000:779 JLINK_ReadMem (0xE0000FF0, 0x0010 Bytes, ...) -- CPU is running -- CPU_ReadMem(16 bytes @ 0xE0000FF0) - Data: 0D 00 00 00 E0 00 00 00 05 00 00 00 B1 00 00 00  returns 0x00 (0001ms, 0646ms total)
T0590 000:780 JLINK_ReadMem (0xE0000FD0, 0x0020 Bytes, ...) -- CPU is running -- CPU_ReadMem(32 bytes @ 0xE0000FD0) - Data: 04 00 00 00 00 00 00 00 00 00 00 00 00 00 00 00 ...  returns 0x00 (0001ms, 0647ms total)
T0590 000:781 JLINK_ReadMem (0xE0040FF0, 0x0010 Bytes, ...) -- CPU is running -- CPU_ReadMem(16 bytes @ 0xE0040FF0) - Data: 0D 00 00 00 90 00 00 00 05 00 00 00 B1 00 00 00  returns 0x00 (0001ms, 0648ms total)
T0590 000:782 JLINK_ReadMem (0xE0040FD0, 0x0020 Bytes, ...) -- CPU is running -- CPU_ReadMem(32 bytes @ 0xE0040FD0) - Data: 04 00 00 00 00 00 00 00 00 00 00 00 00 00 00 00 ...  returns 0x00 (0001ms, 0649ms total)
T0590 000:783 JLINK_ReadMem (0xE0041FF0, 0x0010 Bytes, ...) -- CPU is running -- CPU_ReadMem(16 bytes @ 0xE0041FF0) - Data: 0D 00 00 00 90 00 00 00 05 00 00 00 B1 00 00 00  returns 0x00 (0001ms, 0650ms total)
T0590 000:784 JLINK_ReadMem (0xE0041FD0, 0x0020 Bytes, ...) -- CPU is running -- CPU_ReadMem(32 bytes @ 0xE0041FD0) - Data: 04 00 00 00 00 00 00 00 00 00 00 00 00 00 00 00 ...  returns 0x00 (0001ms, 0651ms total)
T0590 000:785 JLINK_ReadMemU32(0xE000ED00, 0x0001 Items, ...) -- CPU is running -- CPU_ReadMem(4 bytes @ 0xE000ED00) - Data: 31 C2 1F 41  returns 0x01 (0000ms, 0651ms total)
T0590 000:785 JLINK_SetResetType(JLINKARM_RESET_TYPE_NORMAL)  returns JLINKARM_RESET_TYPE_NORMAL (0000ms, 0651ms total)
T0590 000:785 JLINK_Reset() -- CPU is running -- CPU_WriteMem(4 bytes @ 0xE000EDF0) -- CPU is running -- CPU_WriteMem(4 bytes @ 0xE000EDFC) >0x35 TIF> -- CPU is running -- CPU_WriteMem(4 bytes @ 0xE000ED0C) -- CPU is running -- CPU_ReadMem(4 bytes @ 0xE000EDF0) -- CPU is running -- CPU_ReadMem(4 bytes @ 0xE000EDF0) -- CPU is running -- CPU_WriteMem(4 bytes @ 0xE000EDF0) -- CPU is running -- CPU_WriteMem(4 bytes @ 0xE000EDFC) -- CPU is running -- CPU_ReadMem(4 bytes @ 0xE000EDF0)
 -- CPU_WriteMem(4 bytes @ 0xE0002000) -- CPU_ReadMem(4 bytes @ 0xE000EDFC) -- CPU_ReadMem(4 bytes @ 0xE0001000) (0023ms, 0674ms total)
T0590 000:808 JLINK_Halt()  returns 0x00 (0001ms, 0675ms total)
T0590 000:809 JLINK_IsHalted()  returns TRUE (0000ms, 0675ms total)
T0590 000:809 JLINK_ReadMemU32(0xE000EDF0, 0x0001 Items, ...) -- CPU_ReadMem(4 bytes @ 0xE000EDF0) - Data: 03 00 03 00  returns 0x01 (0000ms, 0675ms total)
T0590 000:809 JLINK_WriteU32(0xE000EDF0, 0xA05F0003) -- CPU_WriteMem(4 bytes @ 0xE000EDF0)  returns 0x00 (0001ms, 0676ms total)
T0590 000:810 JLINK_WriteU32(0xE000EDFC, 0x01000000) -- CPU_WriteMem(4 bytes @ 0xE000EDFC)  returns 0x00 (0001ms, 0677ms total)
T0590 000:826 JLINK_GetHWStatus(...)  returns 0x00 (0000ms, 0677ms total)
T0590 000:837 JLINK_GetNumBPUnits(Type = 0xFFFFFF00)  returns 0x06 (0000ms, 0677ms total)
T0590 000:837 JLINK_GetNumBPUnits(Type = 0xF0)  returns 0x2000 (0000ms, 0677ms total)
T0590 000:837 JLINK_GetNumWPUnits()  returns 0x04 (0001ms, 0678ms total)
T0590 000:851 JLINK_GetSpeed()  returns 0xFA0 (0000ms, 0678ms total)
T0590 000:860 JLINK_ReadMemU32(0xE000E004, 0x0001 Items, ...) -- CPU_ReadMem(4 bytes @ 0xE000E004) - Data: 01 00 00 00  returns 0x01 (0001ms, 0679ms total)
T0590 000:861 JLINK_ReadMemU32(0xE000E004, 0x0001 Items, ...) -- CPU_ReadMem(4 bytes @ 0xE000E004) - Data: 01 00 00 00  returns 0x01 (0001ms, 0680ms total)
T0590 000:862 JLINK_WriteMem(0xE0001000, 0x001C Bytes, ...) - Data: 01 00 00 00 00 00 00 00 00 00 00 00 00 00 00 00 ... -- CPU_WriteMem(28 bytes @ 0xE0001000)  returns 0x1C (0001ms, 0681ms total)
T0590 000:863 JLINK_ReadMem (0xE0001000, 0x001C Bytes, ...) -- CPU_ReadMem(28 bytes @ 0xE0001000) - Data: 01 00 00 40 00 00 00 00 00 00 00 00 00 00 00 00 ...  returns 0x00 (0001ms, 0682ms total)
T0590 000:864 JLINK_Halt()  returns 0x00 (0000ms, 0682ms total)
T0590 000:864 JLINK_IsHalted()  returns TRUE (0000ms, 0682ms total)
T0590 000:867 JLINK_WriteMem(0x20000000, 0x0164 Bytes, ...) - Data: 00 BE 0A E0 0D 78 2D 06 68 40 08 24 40 00 00 D3 ... -- CPU_WriteMem(356 bytes @ 0x20000000)  returns 0x164 (0005ms, 0687ms total)
T0590 000:872 JLINK_WriteReg(R0, 0x08000000)  returns 0x00 (0000ms, 0687ms total)
T0590 000:872 JLINK_WriteReg(R1, 0x00B71B00)  returns 0x00 (0000ms, 0687ms total)
T0590 000:872 JLINK_WriteReg(R2, 0x00000001)  returns 0x00 (0000ms, 0687ms total)
T0590 000:872 JLINK_WriteReg(R3, 0x00000000)  returns 0x00 (0000ms, 0687ms total)
T0590 000:872 JLINK_WriteReg(R4, 0x00000000)  returns 0x00 (0000ms, 0687ms total)
T0590 000:872 JLINK_WriteReg(R5, 0x00000000)  returns 0x00 (0000ms, 0687ms total)
T0590 000:872 JLINK_WriteReg(R6, 0x00000000)  returns 0x00 (0000ms, 0687ms total)
T0590 000:872 JLINK_WriteReg(R7, 0x00000000)  returns 0x00 (0000ms, 0687ms total)
T0590 000:872 JLINK_WriteReg(R8, 0x00000000)  returns 0x00 (0000ms, 0687ms total)
T0590 000:872 JLINK_WriteReg(R9, 0x20000160)  returns 0x00 (0000ms, 0687ms total)
T0590 000:872 JLINK_WriteReg(R10, 0x00000000)  returns 0x00 (0000ms, 0687ms total)
T0590 000:872 JLINK_WriteReg(R11, 0x00000000)  returns 0x00 (0000ms, 0687ms total)
T0590 000:872 JLINK_WriteReg(R12, 0x00000000)  returns 0x00 (0000ms, 0687ms total)
T0590 000:872 JLINK_WriteReg(R13 (SP), 0x20001000)  returns 0x00 (0000ms, 0687ms total)
T0590 000:872 JLINK_WriteReg(R14, 0x20000001)  returns 0x00 (0000ms, 0687ms total)
T0590 000:872 JLINK_WriteReg(R15 (PC), 0x20000038)  returns 0x00 (0000ms, 0687ms total)
T0590 000:872 JLINK_WriteReg(XPSR, 0x01000000)  returns 0x00 (0000ms, 0687ms total)
T0590 000:872 JLINK_WriteReg(MSP, 0x20001000)  returns 0x00 (0000ms, 0687ms total)
T0590 000:872 JLINK_WriteReg(PSP, 0x20001000)  returns 0x00 (0000ms, 0687ms total)
T0590 000:872 JLINK_WriteReg(CFBP, 0x00000000)  returns 0x00 (0000ms, 0687ms total)
T0590 000:872 JLINK_SetBPEx(Addr = 0x20000000, Type = 0xFFFFFFF2) -- CPU_ReadMem(2 bytes @ 0x20000000)  returns 0x00000001 (0001ms, 0688ms total)
T0590 000:873 JLINK_Go() -- CPU_WriteMem(2 bytes @ 0x20000000) -- CPU_WriteMem(4 bytes @ 0xE0002008) -- CPU_WriteMem(4 bytes @ 0xE000200C) -- CPU_WriteMem(4 bytes @ 0xE0002010) -- CPU_WriteMem(4 bytes @ 0xE0002014) -- CPU_WriteMem(4 bytes @ 0xE0002018) -- CPU_WriteMem(4 bytes @ 0xE000201C) -- CPU_WriteMem(4 bytes @ 0xE0001004) (0011ms, 0699ms total)
T0590 000:884 JLINK_IsHalted() -- CPU_ReadMem(2 bytes @ 0x20000000)  returns TRUE (0004ms, 0703ms total)
T0590 000:888 JLINK_ReadReg(R15 (PC))  returns 0x20000000 (0000ms, 0699ms total)
T0590 000:888 JLINK_ClrBPEx(BPHandle = 0x00000001)  returns 0x00 (0000ms, 0699ms total)
T0590 000:888 JLINK_ReadReg(R0)  returns 0x00000000 (0000ms, 0699ms total)
T0590 000:889 JLINK_WriteReg(R0, 0x08000000)  returns 0x00 (0000ms, 0699ms total)
T0590 000:889 JLINK_WriteReg(R1, 0x00B71B00)  returns 0x00 (0000ms, 0699ms total)
T0590 000:889 JLINK_WriteReg(R2, 0x00000001)  returns 0x00 (0000ms, 0699ms total)
T0590 000:889 JLINK_WriteReg(R3, 0x00000000)  returns 0x00 (0000ms, 0699ms total)
T0590 000:889 JLINK_WriteReg(R4, 0x00000000)  returns 0x00 (0000ms, 0699ms total)
T0590 000:889 JLINK_WriteReg(R5, 0x00000000)  returns 0x00 (0000ms, 0699ms total)
T0590 000:889 JLINK_WriteReg(R6, 0x00000000)  returns 0x00 (0000ms, 0699ms total)
T0590 000:889 JLINK_WriteReg(R7, 0x00000000)  returns 0x00 (0000ms, 0699ms total)
T0590 000:889 JLINK_WriteReg(R8, 0x00000000)  returns 0x00 (0000ms, 0699ms total)
T0590 000:889 JLINK_WriteReg(R9, 0x20000160)  returns 0x00 (0000ms, 0699ms total)
T0590 000:889 JLINK_WriteReg(R10, 0x00000000)  returns 0x00 (0000ms, 0699ms total)
T0590 000:889 JLINK_WriteReg(R11, 0x00000000)  returns 0x00 (0000ms, 0699ms total)
T0590 000:889 JLINK_WriteReg(R12, 0x00000000)  returns 0x00 (0000ms, 0699ms total)
T0590 000:889 JLINK_WriteReg(R13 (SP), 0x20001000)  returns 0x00 (0000ms, 0699ms total)
T0590 000:889 JLINK_WriteReg(R14, 0x20000001)  returns 0x00 (0000ms, 0699ms total)
T0590 000:889 JLINK_WriteReg(R15 (PC), 0x2000007C)  returns 0x00 (0000ms, 0699ms total)
T0590 000:889 JLINK_WriteReg(XPSR, 0x01000000)  returns 0x00 (0000ms, 0699ms total)
T0590 000:889 JLINK_WriteReg(MSP, 0x20001000)  returns 0x00 (0000ms, 0699ms total)
T0590 000:889 JLINK_WriteReg(PSP, 0x20001000)  returns 0x00 (0000ms, 0699ms total)
T0590 000:889 JLINK_WriteReg(CFBP, 0x00000000)  returns 0x00 (0000ms, 0699ms total)
T0590 000:889 JLINK_SetBPEx(Addr = 0x20000000, Type = 0xFFFFFFF2)  returns 0x00000002 (0000ms, 0699ms total)
T0590 000:889 JLINK_Go() (0003ms, 0702ms total)
T0590 000:892 JLINK_IsHalted()  returns FALSE (0000ms, 0702ms total)
T0590 000:975 JLINK_IsHalted() -- CPU_ReadMem(2 bytes @ 0x20000000)  returns TRUE (0003ms, 0705ms total)
T0590 000:978 JLINK_ReadReg(R15 (PC))  returns 0x20000000 (0001ms, 0703ms total)
T0590 000:979 JLINK_ClrBPEx(BPHandle = 0x00000002)  returns 0x00 (0000ms, 0703ms total)
T0590 000:979 JLINK_ReadReg(R0)  returns 0x00000000 (0000ms, 0703ms total)
T0590 001:032 JLINK_WriteReg(R0, 0x00000001)  returns 0x00 (0001ms, 0704ms total)
T0590 001:033 JLINK_WriteReg(R1, 0x00B71B00)  returns 0x00 (0000ms, 0704ms total)
T0590 001:033 JLINK_WriteReg(R2, 0x00000001)  returns 0x00 (0000ms, 0704ms total)
T0590 001:033 JLINK_WriteReg(R3, 0x00000000)  returns 0x00 (0000ms, 0704ms total)
T0590 001:033 JLINK_WriteReg(R4, 0x00000000)  returns 0x00 (0000ms, 0704ms total)
T0590 001:033 JLINK_WriteReg(R5, 0x00000000)  returns 0x00 (0000ms, 0704ms total)
T0590 001:033 JLINK_WriteReg(R6, 0x00000000)  returns 0x00 (0000ms, 0704ms total)
T0590 001:033 JLINK_WriteReg(R7, 0x00000000)  returns 0x00 (0000ms, 0704ms total)
T0590 001:033 JLINK_WriteReg(R8, 0x00000000)  returns 0x00 (0000ms, 0704ms total)
T0590 001:034 JLINK_WriteReg(R9, 0x20000160)  returns 0x00 (0000ms, 0704ms total)
T0590 001:034 JLINK_WriteReg(R10, 0x00000000)  returns 0x00 (0000ms, 0704ms total)
T0590 001:034 JLINK_WriteReg(R11, 0x00000000)  returns 0x00 (0000ms, 0704ms total)
T0590 001:034 JLINK_WriteReg(R12, 0x00000000)  returns 0x00 (0000ms, 0704ms total)
T0590 001:034 JLINK_WriteReg(R13 (SP), 0x20001000)  returns 0x00 (0000ms, 0704ms total)
T0590 001:034 JLINK_WriteReg(R14, 0x20000001)  returns 0x00 (0000ms, 0704ms total)
T0590 001:034 JLINK_WriteReg(R15 (PC), 0x2000006A)  returns 0x00 (0000ms, 0704ms total)
T0590 001:034 JLINK_WriteReg(XPSR, 0x01000000)  returns 0x00 (0000ms, 0704ms total)
T0590 001:034 JLINK_WriteReg(MSP, 0x20001000)  returns 0x00 (0000ms, 0704ms total)
T0590 001:034 JLINK_WriteReg(PSP, 0x20001000)  returns 0x00 (0000ms, 0704ms total)
T0590 001:034 JLINK_WriteReg(CFBP, 0x00000000)  returns 0x00 (0001ms, 0705ms total)
T0590 001:035 JLINK_SetBPEx(Addr = 0x20000000, Type = 0xFFFFFFF2)  returns 0x00000003 (0000ms, 0705ms total)
T0590 001:035 JLINK_Go() (0002ms, 0707ms total)
T0590 001:037 JLINK_IsHalted() -- CPU_ReadMem(2 bytes @ 0x20000000)  returns TRUE (0005ms, 0712ms total)
T0590 001:042 JLINK_ReadReg(R15 (PC))  returns 0x20000000 (0000ms, 0707ms total)
T0590 001:042 JLINK_ClrBPEx(BPHandle = 0x00000003)  returns 0x00 (0000ms, 0707ms total)
T0590 001:042 JLINK_ReadReg(R0)  returns 0x00000000 (0000ms, 0707ms total)
T0590 001:062 JLINK_WriteMem(0x20000000, 0x0164 Bytes, ...) - Data: 00 BE 0A E0 0D 78 2D 06 68 40 08 24 40 00 00 D3 ... -- CPU_WriteMem(356 bytes @ 0x20000000)  returns 0x164 (0005ms, 0712ms total)
T0590 001:067 JLINK_WriteReg(R0, 0x08000000)  returns 0x00 (0000ms, 0712ms total)
T0590 001:067 JLINK_WriteReg(R1, 0x00B71B00)  returns 0x00 (0000ms, 0712ms total)
T0590 001:067 JLINK_WriteReg(R2, 0x00000002)  returns 0x00 (0000ms, 0712ms total)
T0590 001:067 JLINK_WriteReg(R3, 0x00000000)  returns 0x00 (0000ms, 0712ms total)
T0590 001:067 JLINK_WriteReg(R4, 0x00000000)  returns 0x00 (0001ms, 0713ms total)
T0590 001:068 JLINK_WriteReg(R5, 0x00000000)  returns 0x00 (0000ms, 0713ms total)
T0590 001:068 JLINK_WriteReg(R6, 0x00000000)  returns 0x00 (0000ms, 0713ms total)
T0590 001:068 JLINK_WriteReg(R7, 0x00000000)  returns 0x00 (0000ms, 0713ms total)
T0590 001:068 JLINK_WriteReg(R8, 0x00000000)  returns 0x00 (0000ms, 0713ms total)
T0590 001:068 JLINK_WriteReg(R9, 0x20000160)  returns 0x00 (0000ms, 0713ms total)
T0590 001:068 JLINK_WriteReg(R10, 0x00000000)  returns 0x00 (0000ms, 0713ms total)
T0590 001:068 JLINK_WriteReg(R11, 0x00000000)  returns 0x00 (0000ms, 0713ms total)
T0590 001:068 JLINK_WriteReg(R12, 0x00000000)  returns 0x00 (0000ms, 0713ms total)
T0590 001:068 JLINK_WriteReg(R13 (SP), 0x20001000)  returns 0x00 (0000ms, 0713ms total)
T0590 001:068 JLINK_WriteReg(R14, 0x20000001)  returns 0x00 (0001ms, 0714ms total)
T0590 001:069 JLINK_WriteReg(R15 (PC), 0x20000038)  returns 0x00 (0000ms, 0714ms total)
T0590 001:069 JLINK_WriteReg(XPSR, 0x01000000)  returns 0x00 (0000ms, 0714ms total)
T0590 001:069 JLINK_WriteReg(MSP, 0x20001000)  returns 0x00 (0000ms, 0714ms total)
T0590 001:069 JLINK_WriteReg(PSP, 0x20001000)  returns 0x00 (0000ms, 0714ms total)
T0590 001:069 JLINK_WriteReg(CFBP, 0x00000000)  returns 0x00 (0000ms, 0714ms total)
T0590 001:069 JLINK_SetBPEx(Addr = 0x20000000, Type = 0xFFFFFFF2) -- CPU_ReadMem(2 bytes @ 0x20000000)  returns 0x00000004 (0001ms, 0715ms total)
T0590 001:070 JLINK_Go() -- CPU_WriteMem(2 bytes @ 0x20000000) (0004ms, 0719ms total)
T0590 001:074 JLINK_IsHalted() -- CPU_ReadMem(2 bytes @ 0x20000000)  returns TRUE (0005ms, 0724ms total)
T0590 001:079 JLINK_ReadReg(R15 (PC))  returns 0x20000000 (0000ms, 0719ms total)
T0590 001:079 JLINK_ClrBPEx(BPHandle = 0x00000004)  returns 0x00 (0000ms, 0719ms total)
T0590 001:079 JLINK_ReadReg(R0)  returns 0x00000000 (0000ms, 0719ms total)
T0590 001:079 JLINK_WriteMem(0x20000164, 0x0400 Bytes, ...) - Data: B0 FC 00 20 DD 01 00 08 C9 1F 00 08 CB 1F 00 08 ... -- CPU_WriteMem(1024 bytes @ 0x20000164)  returns 0x400 (0014ms, 0733ms total)
T0590 001:093 JLINK_WriteReg(R0, 0x08000000)  returns 0x00 (0000ms, 0733ms total)
T0590 001:093 JLINK_WriteReg(R1, 0x00000400)  returns 0x00 (0000ms, 0733ms total)
T0590 001:093 JLINK_WriteReg(R2, 0x20000164)  returns 0x00 (0000ms, 0733ms total)
T0590 001:093 JLINK_WriteReg(R3, 0x00000000)  returns 0x00 (0000ms, 0733ms total)
T0590 001:093 JLINK_WriteReg(R4, 0x00000000)  returns 0x00 (0000ms, 0733ms total)
T0590 001:093 JLINK_WriteReg(R5, 0x00000000)  returns 0x00 (0000ms, 0733ms total)
T0590 001:093 JLINK_WriteReg(R6, 0x00000000)  returns 0x00 (0000ms, 0733ms total)
T0590 001:093 JLINK_WriteReg(R7, 0x00000000)  returns 0x00 (0000ms, 0733ms total)
T0590 001:093 JLINK_WriteReg(R8, 0x00000000)  returns 0x00 (0000ms, 0733ms total)
T0590 001:093 JLINK_WriteReg(R9, 0x20000160)  returns 0x00 (0000ms, 0733ms total)
T0590 001:093 JLINK_WriteReg(R10, 0x00000000)  returns 0x00 (0000ms, 0733ms total)
T0590 001:093 JLINK_WriteReg(R11, 0x00000000)  returns 0x00 (0000ms, 0733ms total)
T0590 001:093 JLINK_WriteReg(R12, 0x00000000)  returns 0x00 (0000ms, 0733ms total)
T0590 001:093 JLINK_WriteReg(R13 (SP), 0x20001000)  returns 0x00 (0000ms, 0733ms total)
T0590 001:093 JLINK_WriteReg(R14, 0x20000001)  returns 0x00 (0000ms, 0733ms total)
T0590 001:093 JLINK_WriteReg(R15 (PC), 0x200000F4)  returns 0x00 (0000ms, 0733ms total)
T0590 001:093 JLINK_WriteReg(XPSR, 0x01000000)  returns 0x00 (0000ms, 0733ms total)
T0590 001:093 JLINK_WriteReg(MSP, 0x20001000)  returns 0x00 (0001ms, 0734ms total)
T0590 001:094 JLINK_WriteReg(PSP, 0x20001000)  returns 0x00 (0000ms, 0734ms total)
T0590 001:094 JLINK_WriteReg(CFBP, 0x00000000)  returns 0x00 (0000ms, 0734ms total)
T0590 001:094 JLINK_SetBPEx(Addr = 0x20000000, Type = 0xFFFFFFF2)  returns 0x00000005 (0000ms, 0734ms total)
T0590 001:094 JLINK_Go() (0002ms, 0736ms total)
T0590 001:096 JLINK_IsHalted()  returns FALSE (0001ms, 0737ms total)
T0590 001:143 JLINK_IsHalted() -- CPU_ReadMem(2 bytes @ 0x20000000)  returns TRUE (0005ms, 0741ms total)
T0590 001:148 JLINK_ReadReg(R15 (PC))  returns 0x20000000 (0000ms, 0736ms total)
T0590 001:148 JLINK_ClrBPEx(BPHandle = 0x00000005)  returns 0x00 (0000ms, 0736ms total)
T0590 001:148 JLINK_ReadReg(R0)  returns 0x00000000 (0000ms, 0736ms total)
T0590 001:148 JLINK_WriteMem(0x20000164, 0x0400 Bytes, ...) - Data: 0C ED 00 E0 80 FF FF 1F C5 49 10 B5 88 42 02 D1 ... -- CPU_WriteMem(1024 bytes @ 0x20000164)  returns 0x400 (0013ms, 0749ms total)
T0590 001:161 JLINK_WriteReg(R0, 0x08000400)  returns 0x00 (0000ms, 0749ms total)
T0590 001:161 JLINK_WriteReg(R1, 0x00000400)  returns 0x00 (0000ms, 0749ms total)
T0590 001:161 JLINK_WriteReg(R2, 0x20000164)  returns 0x00 (0000ms, 0749ms total)
T0590 001:161 JLINK_WriteReg(R3, 0x00000000)  returns 0x00 (0000ms, 0749ms total)
T0590 001:161 JLINK_WriteReg(R4, 0x00000000)  returns 0x00 (0000ms, 0749ms total)
T0590 001:161 JLINK_WriteReg(R5, 0x00000000)  returns 0x00 (0000ms, 0749ms total)
T0590 001:161 JLINK_WriteReg(R6, 0x00000000)  returns 0x00 (0000ms, 0749ms total)
T0590 001:161 JLINK_WriteReg(R7, 0x00000000)  returns 0x00 (0000ms, 0749ms total)
T0590 001:161 JLINK_WriteReg(R8, 0x00000000)  returns 0x00 (0000ms, 0749ms total)
T0590 001:161 JLINK_WriteReg(R9, 0x20000160)  returns 0x00 (0000ms, 0749ms total)
T0590 001:161 JLINK_WriteReg(R10, 0x00000000)  returns 0x00 (0000ms, 0749ms total)
T0590 001:161 JLINK_WriteReg(R11, 0x00000000)  returns 0x00 (0000ms, 0749ms total)
T0590 001:161 JLINK_WriteReg(R12, 0x00000000)  returns 0x00 (0000ms, 0749ms total)
T0590 001:161 JLINK_WriteReg(R13 (SP), 0x20001000)  returns 0x00 (0000ms, 0749ms total)
T0590 001:161 JLINK_WriteReg(R14, 0x20000001)  returns 0x00 (0000ms, 0749ms total)
T0590 001:161 JLINK_WriteReg(R15 (PC), 0x200000F4)  returns 0x00 (0000ms, 0749ms total)
T0590 001:161 JLINK_WriteReg(XPSR, 0x01000000)  returns 0x00 (0000ms, 0749ms total)
T0590 001:161 JLINK_WriteReg(MSP, 0x20001000)  returns 0x00 (0000ms, 0749ms total)
T0590 001:161 JLINK_WriteReg(PSP, 0x20001000)  returns 0x00 (0000ms, 0749ms total)
T0590 001:161 JLINK_WriteReg(CFBP, 0x00000000)  returns 0x00 (0000ms, 0749ms total)
T0590 001:161 JLINK_SetBPEx(Addr = 0x20000000, Type = 0xFFFFFFF2)  returns 0x00000006 (0000ms, 0749ms total)
T0590 001:161 JLINK_Go() (0004ms, 0753ms total)
T0590 001:165 JLINK_IsHalted()  returns FALSE (0001ms, 0754ms total)
T0590 001:197 JLINK_IsHalted() -- CPU_ReadMem(2 bytes @ 0x20000000)  returns TRUE (0005ms, 0758ms total)
T0590 001:202 JLINK_ReadReg(R15 (PC))  returns 0x20000000 (0000ms, 0753ms total)
T0590 001:202 JLINK_ClrBPEx(BPHandle = 0x00000006)  returns 0x00 (0000ms, 0753ms total)
T0590 001:202 JLINK_ReadReg(R0)  returns 0x00000000 (0000ms, 0753ms total)
T0590 001:202 JLINK_WriteMem(0x20000164, 0x0400 Bytes, ...) - Data: ED E7 3E 4A 50 32 90 42 EA D1 08 68 40 F4 70 20 ... -- CPU_WriteMem(1024 bytes @ 0x20000164)  returns 0x400 (0013ms, 0766ms total)
T0590 001:215 JLINK_WriteReg(R0, 0x08000800)  returns 0x00 (0000ms, 0766ms total)
T0590 001:215 JLINK_WriteReg(R1, 0x00000400)  returns 0x00 (0000ms, 0766ms total)
T0590 001:215 JLINK_WriteReg(R2, 0x20000164)  returns 0x00 (0000ms, 0766ms total)
T0590 001:215 JLINK_WriteReg(R3, 0x00000000)  returns 0x00 (0000ms, 0766ms total)
T0590 001:215 JLINK_WriteReg(R4, 0x00000000)  returns 0x00 (0000ms, 0766ms total)
T0590 001:215 JLINK_WriteReg(R5, 0x00000000)  returns 0x00 (0000ms, 0766ms total)
T0590 001:215 JLINK_WriteReg(R6, 0x00000000)  returns 0x00 (0000ms, 0766ms total)
T0590 001:215 JLINK_WriteReg(R7, 0x00000000)  returns 0x00 (0000ms, 0766ms total)
T0590 001:215 JLINK_WriteReg(R8, 0x00000000)  returns 0x00 (0000ms, 0766ms total)
T0590 001:215 JLINK_WriteReg(R9, 0x20000160)  returns 0x00 (0000ms, 0766ms total)
T0590 001:215 JLINK_WriteReg(R10, 0x00000000)  returns 0x00 (0000ms, 0766ms total)
T0590 001:215 JLINK_WriteReg(R11, 0x00000000)  returns 0x00 (0000ms, 0766ms total)
T0590 001:215 JLINK_WriteReg(R12, 0x00000000)  returns 0x00 (0000ms, 0766ms total)
T0590 001:215 JLINK_WriteReg(R13 (SP), 0x20001000)  returns 0x00 (0000ms, 0766ms total)
T0590 001:215 JLINK_WriteReg(R14, 0x20000001)  returns 0x00 (0000ms, 0766ms total)
T0590 001:215 JLINK_WriteReg(R15 (PC), 0x200000F4)  returns 0x00 (0000ms, 0766ms total)
T0590 001:215 JLINK_WriteReg(XPSR, 0x01000000)  returns 0x00 (0000ms, 0766ms total)
T0590 001:215 JLINK_WriteReg(MSP, 0x20001000)  returns 0x00 (0000ms, 0766ms total)
T0590 001:215 JLINK_WriteReg(PSP, 0x20001000)  returns 0x00 (0000ms, 0766ms total)
T0590 001:215 JLINK_WriteReg(CFBP, 0x00000000)  returns 0x00 (0000ms, 0766ms total)
T0590 001:215 JLINK_SetBPEx(Addr = 0x20000000, Type = 0xFFFFFFF2)  returns 0x00000007 (0000ms, 0766ms total)
T0590 001:215 JLINK_Go() (0003ms, 0769ms total)
T0590 001:218 JLINK_IsHalted()  returns FALSE (0001ms, 0770ms total)
T0590 001:223 JLINK_IsHalted()  returns FALSE (0001ms, 0770ms total)
T0590 001:226 JLINK_IsHalted()  returns FALSE (0001ms, 0770ms total)
T0590 001:229 JLINK_IsHalted()  returns FALSE (0001ms, 0770ms total)
T0590 001:232 JLINK_IsHalted()  returns FALSE (0001ms, 0770ms total)
T0590 001:235 JLINK_IsHalted()  returns FALSE (0001ms, 0770ms total)
T0590 001:238 JLINK_IsHalted()  returns FALSE (0001ms, 0770ms total)
T0590 001:241 JLINK_IsHalted()  returns FALSE (0001ms, 0770ms total)
T0590 001:244 JLINK_IsHalted()  returns FALSE (0001ms, 0770ms total)
T0590 001:246 JLINK_IsHalted()  returns FALSE (0001ms, 0770ms total)
T0590 001:249 JLINK_IsHalted() -- CPU_ReadMem(2 bytes @ 0x20000000)  returns TRUE (0005ms, 0774ms total)
T0590 001:254 JLINK_ReadReg(R15 (PC))  returns 0x20000000 (0000ms, 0769ms total)
T0590 001:254 JLINK_ClrBPEx(BPHandle = 0x00000007)  returns 0x00 (0000ms, 0769ms total)
T0590 001:254 JLINK_ReadReg(R0)  returns 0x00000000 (0000ms, 0769ms total)
T0590 001:255 JLINK_WriteMem(0x20000164, 0x0400 Bytes, ...) - Data: 10 6E 40 F0 04 00 0A E0 5B 49 C9 1E 10 28 04 D0 ... -- CPU_WriteMem(1024 bytes @ 0x20000164)  returns 0x400 (0013ms, 0782ms total)
T0590 001:268 JLINK_WriteReg(R0, 0x08000C00)  returns 0x00 (0000ms, 0782ms total)
T0590 001:268 JLINK_WriteReg(R1, 0x00000400)  returns 0x00 (0000ms, 0782ms total)
T0590 001:268 JLINK_WriteReg(R2, 0x20000164)  returns 0x00 (0000ms, 0782ms total)
T0590 001:268 JLINK_WriteReg(R3, 0x00000000)  returns 0x00 (0000ms, 0782ms total)
T0590 001:268 JLINK_WriteReg(R4, 0x00000000)  returns 0x00 (0000ms, 0782ms total)
T0590 001:268 JLINK_WriteReg(R5, 0x00000000)  returns 0x00 (0000ms, 0782ms total)
T0590 001:268 JLINK_WriteReg(R6, 0x00000000)  returns 0x00 (0000ms, 0782ms total)
T0590 001:268 JLINK_WriteReg(R7, 0x00000000)  returns 0x00 (0000ms, 0782ms total)
T0590 001:268 JLINK_WriteReg(R8, 0x00000000)  returns 0x00 (0000ms, 0782ms total)
T0590 001:268 JLINK_WriteReg(R9, 0x20000160)  returns 0x00 (0000ms, 0782ms total)
T0590 001:268 JLINK_WriteReg(R10, 0x00000000)  returns 0x00 (0000ms, 0782ms total)
T0590 001:268 JLINK_WriteReg(R11, 0x00000000)  returns 0x00 (0000ms, 0782ms total)
T0590 001:268 JLINK_WriteReg(R12, 0x00000000)  returns 0x00 (0000ms, 0782ms total)
T0590 001:268 JLINK_WriteReg(R13 (SP), 0x20001000)  returns 0x00 (0000ms, 0782ms total)
T0590 001:268 JLINK_WriteReg(R14, 0x20000001)  returns 0x00 (0000ms, 0782ms total)
T0590 001:268 JLINK_WriteReg(R15 (PC), 0x200000F4)  returns 0x00 (0000ms, 0782ms total)
T0590 001:268 JLINK_WriteReg(XPSR, 0x01000000)  returns 0x00 (0000ms, 0782ms total)
T0590 001:268 JLINK_WriteReg(MSP, 0x20001000)  returns 0x00 (0000ms, 0782ms total)
T0590 001:268 JLINK_WriteReg(PSP, 0x20001000)  returns 0x00 (0000ms, 0782ms total)
T0590 001:268 JLINK_WriteReg(CFBP, 0x00000000)  returns 0x00 (0000ms, 0782ms total)
T0590 001:268 JLINK_SetBPEx(Addr = 0x20000000, Type = 0xFFFFFFF2)  returns 0x00000008 (0000ms, 0782ms total)
T0590 001:268 JLINK_Go() (0002ms, 0784ms total)
T0590 001:270 JLINK_IsHalted()  returns FALSE (0001ms, 0785ms total)
T0590 001:340 JLINK_IsHalted() -- CPU_ReadMem(2 bytes @ 0x20000000)  returns TRUE (0005ms, 0789ms total)
T0590 001:345 JLINK_ReadReg(R15 (PC))  returns 0x20000000 (0000ms, 0784ms total)
T0590 001:345 JLINK_ClrBPEx(BPHandle = 0x00000008)  returns 0x00 (0000ms, 0784ms total)
T0590 001:345 JLINK_ReadReg(R0)  returns 0x00000000 (0000ms, 0784ms total)
T0590 001:345 JLINK_WriteMem(0x20000164, 0x0400 Bytes, ...) - Data: 01 60 41 68 21 F4 FE 01 41 60 4F F4 1F 01 81 60 ... -- CPU_WriteMem(1024 bytes @ 0x20000164)  returns 0x400 (0013ms, 0797ms total)
T0590 001:358 JLINK_WriteReg(R0, 0x08001000)  returns 0x00 (0000ms, 0797ms total)
T0590 001:358 JLINK_WriteReg(R1, 0x00000400)  returns 0x00 (0000ms, 0797ms total)
T0590 001:358 JLINK_WriteReg(R2, 0x20000164)  returns 0x00 (0000ms, 0797ms total)
T0590 001:358 JLINK_WriteReg(R3, 0x00000000)  returns 0x00 (0000ms, 0797ms total)
T0590 001:358 JLINK_WriteReg(R4, 0x00000000)  returns 0x00 (0000ms, 0797ms total)
T0590 001:358 JLINK_WriteReg(R5, 0x00000000)  returns 0x00 (0001ms, 0798ms total)
T0590 001:359 JLINK_WriteReg(R6, 0x00000000)  returns 0x00 (0000ms, 0798ms total)
T0590 001:359 JLINK_WriteReg(R7, 0x00000000)  returns 0x00 (0000ms, 0798ms total)
T0590 001:359 JLINK_WriteReg(R8, 0x00000000)  returns 0x00 (0000ms, 0798ms total)
T0590 001:359 JLINK_WriteReg(R9, 0x20000160)  returns 0x00 (0000ms, 0798ms total)
T0590 001:359 JLINK_WriteReg(R10, 0x00000000)  returns 0x00 (0000ms, 0798ms total)
T0590 001:359 JLINK_WriteReg(R11, 0x00000000)  returns 0x00 (0000ms, 0798ms total)
T0590 001:359 JLINK_WriteReg(R12, 0x00000000)  returns 0x00 (0000ms, 0798ms total)
T0590 001:359 JLINK_WriteReg(R13 (SP), 0x20001000)  returns 0x00 (0000ms, 0798ms total)
T0590 001:359 JLINK_WriteReg(R14, 0x20000001)  returns 0x00 (0000ms, 0798ms total)
T0590 001:359 JLINK_WriteReg(R15 (PC), 0x200000F4)  returns 0x00 (0000ms, 0798ms total)
T0590 001:359 JLINK_WriteReg(XPSR, 0x01000000)  returns 0x00 (0000ms, 0798ms total)
T0590 001:359 JLINK_WriteReg(MSP, 0x20001000)  returns 0x00 (0000ms, 0798ms total)
T0590 001:359 JLINK_WriteReg(PSP, 0x20001000)  returns 0x00 (0000ms, 0798ms total)
T0590 001:359 JLINK_WriteReg(CFBP, 0x00000000)  returns 0x00 (0000ms, 0798ms total)
T0590 001:359 JLINK_SetBPEx(Addr = 0x20000000, Type = 0xFFFFFFF2)  returns 0x00000009 (0000ms, 0798ms total)
T0590 001:359 JLINK_Go() (0004ms, 0802ms total)
T0590 001:363 JLINK_IsHalted()  returns FALSE (0001ms, 0803ms total)
T0590 001:366 JLINK_IsHalted()  returns FALSE (0001ms, 0803ms total)
T0590 001:369 JLINK_IsHalted()  returns FALSE (0000ms, 0802ms total)
T0590 001:421 JLINK_IsHalted() -- CPU_ReadMem(2 bytes @ 0x20000000)  returns TRUE (0004ms, 0806ms total)
T0590 001:425 JLINK_ReadReg(R15 (PC))  returns 0x20000000 (0000ms, 0802ms total)
T0590 001:425 JLINK_ClrBPEx(BPHandle = 0x00000009)  returns 0x00 (0000ms, 0802ms total)
T0590 001:425 JLINK_ReadReg(R0)  returns 0x00000000 (0000ms, 0802ms total)
T0590 001:425 JLINK_WriteMem(0x20000164, 0x0400 Bytes, ...) - Data: C1 F8 B8 01 70 47 0B 4A 01 46 00 20 52 6B 0A 42 ... -- CPU_WriteMem(1024 bytes @ 0x20000164)  returns 0x400 (0014ms, 0816ms total)
T0590 001:439 JLINK_WriteReg(R0, 0x08001400)  returns 0x00 (0000ms, 0816ms total)
T0590 001:439 JLINK_WriteReg(R1, 0x00000400)  returns 0x00 (0000ms, 0816ms total)
T0590 001:439 JLINK_WriteReg(R2, 0x20000164)  returns 0x00 (0000ms, 0816ms total)
T0590 001:439 JLINK_WriteReg(R3, 0x00000000)  returns 0x00 (0000ms, 0816ms total)
T0590 001:439 JLINK_WriteReg(R4, 0x00000000)  returns 0x00 (0000ms, 0816ms total)
T0590 001:439 JLINK_WriteReg(R5, 0x00000000)  returns 0x00 (0000ms, 0816ms total)
T0590 001:439 JLINK_WriteReg(R6, 0x00000000)  returns 0x00 (0000ms, 0816ms total)
T0590 001:439 JLINK_WriteReg(R7, 0x00000000)  returns 0x00 (0000ms, 0816ms total)
T0590 001:439 JLINK_WriteReg(R8, 0x00000000)  returns 0x00 (0000ms, 0816ms total)
T0590 001:439 JLINK_WriteReg(R9, 0x20000160)  returns 0x00 (0000ms, 0816ms total)
T0590 001:439 JLINK_WriteReg(R10, 0x00000000)  returns 0x00 (0000ms, 0816ms total)
T0590 001:439 JLINK_WriteReg(R11, 0x00000000)  returns 0x00 (0000ms, 0816ms total)
T0590 001:439 JLINK_WriteReg(R12, 0x00000000)  returns 0x00 (0001ms, 0817ms total)
T0590 001:440 JLINK_WriteReg(R13 (SP), 0x20001000)  returns 0x00 (0000ms, 0817ms total)
T0590 001:440 JLINK_WriteReg(R14, 0x20000001)  returns 0x00 (0000ms, 0817ms total)
T0590 001:440 JLINK_WriteReg(R15 (PC), 0x200000F4)  returns 0x00 (0000ms, 0817ms total)
T0590 001:440 JLINK_WriteReg(XPSR, 0x01000000)  returns 0x00 (0000ms, 0817ms total)
T0590 001:440 JLINK_WriteReg(MSP, 0x20001000)  returns 0x00 (0000ms, 0817ms total)
T0590 001:440 JLINK_WriteReg(PSP, 0x20001000)  returns 0x00 (0000ms, 0817ms total)
T0590 001:440 JLINK_WriteReg(CFBP, 0x00000000)  returns 0x00 (0000ms, 0817ms total)
T0590 001:440 JLINK_SetBPEx(Addr = 0x20000000, Type = 0xFFFFFFF2)  returns 0x0000000A (0000ms, 0817ms total)
T0590 001:440 JLINK_Go() (0003ms, 0820ms total)
T0590 001:443 JLINK_IsHalted()  returns FALSE (0001ms, 0821ms total)
T0590 001:461 JLINK_IsHalted()  returns FALSE (0001ms, 0821ms total)
T0590 001:464 JLINK_IsHalted()  returns FALSE (0000ms, 0820ms total)
T0590 001:466 JLINK_IsHalted()  returns FALSE (0000ms, 0820ms total)
T0590 001:469 JLINK_IsHalted()  returns FALSE (0000ms, 0820ms total)
T0590 001:472 JLINK_IsHalted()  returns FALSE (0001ms, 0821ms total)
T0590 001:474 JLINK_IsHalted() -- CPU_ReadMem(2 bytes @ 0x20000000)  returns TRUE (0004ms, 0824ms total)
T0590 001:478 JLINK_ReadReg(R15 (PC))  returns 0x20000000 (0000ms, 0820ms total)
T0590 001:478 JLINK_ClrBPEx(BPHandle = 0x0000000A)  returns 0x00 (0000ms, 0820ms total)
T0590 001:478 JLINK_ReadReg(R0)  returns 0x00000000 (0000ms, 0820ms total)
T0590 001:480 JLINK_WriteMem(0x20000164, 0x0400 Bytes, ...) - Data: 81 89 02 D0 41 F4 00 51 01 E0 21 F4 00 51 81 81 ... -- CPU_WriteMem(1024 bytes @ 0x20000164)  returns 0x400 (0014ms, 0834ms total)
T0590 001:494 JLINK_WriteReg(R0, 0x08001800)  returns 0x00 (0000ms, 0834ms total)
T0590 001:494 JLINK_WriteReg(R1, 0x00000400)  returns 0x00 (0000ms, 0834ms total)
T0590 001:494 JLINK_WriteReg(R2, 0x20000164)  returns 0x00 (0000ms, 0834ms total)
T0590 001:494 JLINK_WriteReg(R3, 0x00000000)  returns 0x00 (0000ms, 0834ms total)
T0590 001:494 JLINK_WriteReg(R4, 0x00000000)  returns 0x00 (0000ms, 0834ms total)
T0590 001:494 JLINK_WriteReg(R5, 0x00000000)  returns 0x00 (0000ms, 0834ms total)
T0590 001:494 JLINK_WriteReg(R6, 0x00000000)  returns 0x00 (0000ms, 0834ms total)
T0590 001:494 JLINK_WriteReg(R7, 0x00000000)  returns 0x00 (0000ms, 0834ms total)
T0590 001:494 JLINK_WriteReg(R8, 0x00000000)  returns 0x00 (0000ms, 0834ms total)
T0590 001:494 JLINK_WriteReg(R9, 0x20000160)  returns 0x00 (0000ms, 0834ms total)
T0590 001:494 JLINK_WriteReg(R10, 0x00000000)  returns 0x00 (0000ms, 0834ms total)
T0590 001:494 JLINK_WriteReg(R11, 0x00000000)  returns 0x00 (0000ms, 0834ms total)
T0590 001:494 JLINK_WriteReg(R12, 0x00000000)  returns 0x00 (0000ms, 0834ms total)
T0590 001:494 JLINK_WriteReg(R13 (SP), 0x20001000)  returns 0x00 (0000ms, 0834ms total)
T0590 001:494 JLINK_WriteReg(R14, 0x20000001)  returns 0x00 (0000ms, 0834ms total)
T0590 001:494 JLINK_WriteReg(R15 (PC), 0x200000F4)  returns 0x00 (0000ms, 0834ms total)
T0590 001:494 JLINK_WriteReg(XPSR, 0x01000000)  returns 0x00 (0000ms, 0834ms total)
T0590 001:494 JLINK_WriteReg(MSP, 0x20001000)  returns 0x00 (0000ms, 0834ms total)
T0590 001:494 JLINK_WriteReg(PSP, 0x20001000)  returns 0x00 (0000ms, 0834ms total)
T0590 001:494 JLINK_WriteReg(CFBP, 0x00000000)  returns 0x00 (0000ms, 0834ms total)
T0590 001:494 JLINK_SetBPEx(Addr = 0x20000000, Type = 0xFFFFFFF2)  returns 0x0000000B (0000ms, 0834ms total)
T0590 001:494 JLINK_Go() (0002ms, 0836ms total)
T0590 001:496 JLINK_IsHalted()  returns FALSE (0002ms, 0838ms total)
T0590 001:531 JLINK_IsHalted() -- CPU_ReadMem(2 bytes @ 0x20000000)  returns TRUE (0004ms, 0840ms total)
T0590 001:535 JLINK_ReadReg(R15 (PC))  returns 0x20000000 (0000ms, 0836ms total)
T0590 001:535 JLINK_ClrBPEx(BPHandle = 0x0000000B)  returns 0x00 (0000ms, 0836ms total)
T0590 001:535 JLINK_ReadReg(R0)  returns 0x00000000 (0000ms, 0836ms total)
T0590 001:536 JLINK_WriteMem(0x20000164, 0x0400 Bytes, ...) - Data: 60 6A 00 90 76 48 D4 E9 07 23 B1 A1 C8 30 07 F0 ... -- CPU_WriteMem(1024 bytes @ 0x20000164)  returns 0x400 (0013ms, 0849ms total)
T0590 001:549 JLINK_WriteReg(R0, 0x08001C00)  returns 0x00 (0000ms, 0849ms total)
T0590 001:549 JLINK_WriteReg(R1, 0x00000400)  returns 0x00 (0000ms, 0849ms total)
T0590 001:549 JLINK_WriteReg(R2, 0x20000164)  returns 0x00 (0000ms, 0849ms total)
T0590 001:549 JLINK_WriteReg(R3, 0x00000000)  returns 0x00 (0000ms, 0849ms total)
T0590 001:549 JLINK_WriteReg(R4, 0x00000000)  returns 0x00 (0000ms, 0849ms total)
T0590 001:549 JLINK_WriteReg(R5, 0x00000000)  returns 0x00 (0000ms, 0849ms total)
T0590 001:549 JLINK_WriteReg(R6, 0x00000000)  returns 0x00 (0000ms, 0849ms total)
T0590 001:549 JLINK_WriteReg(R7, 0x00000000)  returns 0x00 (0000ms, 0849ms total)
T0590 001:549 JLINK_WriteReg(R8, 0x00000000)  returns 0x00 (0000ms, 0849ms total)
T0590 001:549 JLINK_WriteReg(R9, 0x20000160)  returns 0x00 (0000ms, 0849ms total)
T0590 001:549 JLINK_WriteReg(R10, 0x00000000)  returns 0x00 (0000ms, 0849ms total)
T0590 001:549 JLINK_WriteReg(R11, 0x00000000)  returns 0x00 (0000ms, 0849ms total)
T0590 001:549 JLINK_WriteReg(R12, 0x00000000)  returns 0x00 (0000ms, 0849ms total)
T0590 001:549 JLINK_WriteReg(R13 (SP), 0x20001000)  returns 0x00 (0000ms, 0849ms total)
T0590 001:549 JLINK_WriteReg(R14, 0x20000001)  returns 0x00 (0000ms, 0849ms total)
T0590 001:549 JLINK_WriteReg(R15 (PC), 0x200000F4)  returns 0x00 (0000ms, 0849ms total)
T0590 001:549 JLINK_WriteReg(XPSR, 0x01000000)  returns 0x00 (0001ms, 0850ms total)
T0590 001:550 JLINK_WriteReg(MSP, 0x20001000)  returns 0x00 (0000ms, 0850ms total)
T0590 001:550 JLINK_WriteReg(PSP, 0x20001000)  returns 0x00 (0000ms, 0850ms total)
T0590 001:550 JLINK_WriteReg(CFBP, 0x00000000)  returns 0x00 (0000ms, 0850ms total)
T0590 001:550 JLINK_SetBPEx(Addr = 0x20000000, Type = 0xFFFFFFF2)  returns 0x0000000C (0000ms, 0850ms total)
T0590 001:550 JLINK_Go() (0002ms, 0852ms total)
T0590 001:552 JLINK_IsHalted()  returns FALSE (0001ms, 0853ms total)
T0590 001:555 JLINK_IsHalted()  returns FALSE (0001ms, 0853ms total)
T0590 001:558 JLINK_IsHalted()  returns FALSE (0001ms, 0853ms total)
T0590 001:561 JLINK_IsHalted()  returns FALSE (0001ms, 0853ms total)
T0590 001:563 JLINK_IsHalted()  returns FALSE (0000ms, 0852ms total)
T0590 001:566 JLINK_IsHalted()  returns FALSE (0000ms, 0852ms total)
T0590 001:568 JLINK_IsHalted()  returns FALSE (0001ms, 0853ms total)
T0590 001:571 JLINK_IsHalted()  returns FALSE (0001ms, 0853ms total)
T0590 001:574 JLINK_IsHalted()  returns FALSE (0000ms, 0852ms total)
T0590 001:576 JLINK_IsHalted()  returns FALSE (0001ms, 0853ms total)
T0590 001:579 JLINK_IsHalted()  returns FALSE (0001ms, 0853ms total)
T0590 001:582 JLINK_IsHalted()  returns FALSE (0001ms, 0853ms total)
T0590 001:585 JLINK_IsHalted() -- CPU_ReadMem(2 bytes @ 0x20000000)  returns TRUE (0005ms, 0857ms total)
T0590 001:590 JLINK_ReadReg(R15 (PC))  returns 0x20000000 (0000ms, 0852ms total)
T0590 001:590 JLINK_ClrBPEx(BPHandle = 0x0000000C)  returns 0x00 (0000ms, 0852ms total)
T0590 001:590 JLINK_ReadReg(R0)  returns 0x00000000 (0000ms, 0852ms total)
T0590 001:591 JLINK_WriteMem(0x20000164, 0x0400 Bytes, ...) - Data: 84 F3 11 88 10 BD 00 00 38 B5 01 21 08 20 FF F7 ... -- CPU_WriteMem(1024 bytes @ 0x20000164)  returns 0x400 (0013ms, 0865ms total)
T0590 001:605 JLINK_WriteReg(R0, 0x08002000)  returns 0x00 (0000ms, 0865ms total)
T0590 001:605 JLINK_WriteReg(R1, 0x00000400)  returns 0x00 (0000ms, 0865ms total)
T0590 001:605 JLINK_WriteReg(R2, 0x20000164)  returns 0x00 (0000ms, 0865ms total)
T0590 001:605 JLINK_WriteReg(R3, 0x00000000)  returns 0x00 (0000ms, 0865ms total)
T0590 001:605 JLINK_WriteReg(R4, 0x00000000)  returns 0x00 (0000ms, 0865ms total)
T0590 001:605 JLINK_WriteReg(R5, 0x00000000)  returns 0x00 (0000ms, 0865ms total)
T0590 001:605 JLINK_WriteReg(R6, 0x00000000)  returns 0x00 (0000ms, 0865ms total)
T0590 001:605 JLINK_WriteReg(R7, 0x00000000)  returns 0x00 (0000ms, 0865ms total)
T0590 001:605 JLINK_WriteReg(R8, 0x00000000)  returns 0x00 (0000ms, 0865ms total)
T0590 001:605 JLINK_WriteReg(R9, 0x20000160)  returns 0x00 (0000ms, 0865ms total)
T0590 001:605 JLINK_WriteReg(R10, 0x00000000)  returns 0x00 (0000ms, 0865ms total)
T0590 001:605 JLINK_WriteReg(R11, 0x00000000)  returns 0x00 (0000ms, 0865ms total)
T0590 001:605 JLINK_WriteReg(R12, 0x00000000)  returns 0x00 (0000ms, 0865ms total)
T0590 001:605 JLINK_WriteReg(R13 (SP), 0x20001000)  returns 0x00 (0000ms, 0865ms total)
T0590 001:605 JLINK_WriteReg(R14, 0x20000001)  returns 0x00 (0000ms, 0865ms total)
T0590 001:605 JLINK_WriteReg(R15 (PC), 0x200000F4)  returns 0x00 (0000ms, 0865ms total)
T0590 001:605 JLINK_WriteReg(XPSR, 0x01000000)  returns 0x00 (0000ms, 0865ms total)
T0590 001:605 JLINK_WriteReg(MSP, 0x20001000)  returns 0x00 (0000ms, 0865ms total)
T0590 001:605 JLINK_WriteReg(PSP, 0x20001000)  returns 0x00 (0000ms, 0865ms total)
T0590 001:605 JLINK_WriteReg(CFBP, 0x00000000)  returns 0x00 (0000ms, 0865ms total)
T0590 001:605 JLINK_SetBPEx(Addr = 0x20000000, Type = 0xFFFFFFF2)  returns 0x0000000D (0000ms, 0865ms total)
T0590 001:605 JLINK_Go() (0003ms, 0868ms total)
T0590 001:608 JLINK_IsHalted()  returns FALSE (0001ms, 0869ms total)
T0590 001:642 JLINK_IsHalted() -- CPU_ReadMem(2 bytes @ 0x20000000)  returns TRUE (0005ms, 0873ms total)
T0590 001:647 JLINK_ReadReg(R15 (PC))  returns 0x20000000 (0000ms, 0868ms total)
T0590 001:647 JLINK_ClrBPEx(BPHandle = 0x0000000D)  returns 0x00 (0000ms, 0868ms total)
T0590 001:647 JLINK_ReadReg(R0)  returns 0x00000000 (0000ms, 0868ms total)
T0590 001:647 JLINK_WriteMem(0x20000164, 0x0400 Bytes, ...) - Data: 02 20 FF F7 00 F8 20 B1 02 20 FF F7 04 F8 02 20 ... -- CPU_WriteMem(1024 bytes @ 0x20000164)  returns 0x400 (0013ms, 0881ms total)
T0590 001:660 JLINK_WriteReg(R0, 0x08002400)  returns 0x00 (0000ms, 0881ms total)
T0590 001:660 JLINK_WriteReg(R1, 0x00000400)  returns 0x00 (0000ms, 0881ms total)
T0590 001:660 JLINK_WriteReg(R2, 0x20000164)  returns 0x00 (0000ms, 0881ms total)
T0590 001:660 JLINK_WriteReg(R3, 0x00000000)  returns 0x00 (0000ms, 0881ms total)
T0590 001:660 JLINK_WriteReg(R4, 0x00000000)  returns 0x00 (0000ms, 0881ms total)
T0590 001:660 JLINK_WriteReg(R5, 0x00000000)  returns 0x00 (0000ms, 0881ms total)
T0590 001:660 JLINK_WriteReg(R6, 0x00000000)  returns 0x00 (0000ms, 0881ms total)
T0590 001:660 JLINK_WriteReg(R7, 0x00000000)  returns 0x00 (0000ms, 0881ms total)
T0590 001:660 JLINK_WriteReg(R8, 0x00000000)  returns 0x00 (0000ms, 0881ms total)
T0590 001:660 JLINK_WriteReg(R9, 0x20000160)  returns 0x00 (0000ms, 0881ms total)
T0590 001:660 JLINK_WriteReg(R10, 0x00000000)  returns 0x00 (0000ms, 0881ms total)
T0590 001:660 JLINK_WriteReg(R11, 0x00000000)  returns 0x00 (0000ms, 0881ms total)
T0590 001:660 JLINK_WriteReg(R12, 0x00000000)  returns 0x00 (0000ms, 0881ms total)
T0590 001:660 JLINK_WriteReg(R13 (SP), 0x20001000)  returns 0x00 (0000ms, 0881ms total)
T0590 001:660 JLINK_WriteReg(R14, 0x20000001)  returns 0x00 (0000ms, 0881ms total)
T0590 001:660 JLINK_WriteReg(R15 (PC), 0x200000F4)  returns 0x00 (0000ms, 0881ms total)
T0590 001:661 JLINK_WriteReg(XPSR, 0x01000000)  returns 0x00 (0000ms, 0882ms total)
T0590 001:661 JLINK_WriteReg(MSP, 0x20001000)  returns 0x00 (0000ms, 0882ms total)
T0590 001:661 JLINK_WriteReg(PSP, 0x20001000)  returns 0x00 (0000ms, 0882ms total)
T0590 001:661 JLINK_WriteReg(CFBP, 0x00000000)  returns 0x00 (0000ms, 0882ms total)
T0590 001:661 JLINK_SetBPEx(Addr = 0x20000000, Type = 0xFFFFFFF2)  returns 0x0000000E (0000ms, 0882ms total)
T0590 001:661 JLINK_Go() (0002ms, 0884ms total)
T0590 001:663 JLINK_IsHalted()  returns FALSE (0001ms, 0885ms total)
T0590 001:665 JLINK_IsHalted()  returns FALSE (0001ms, 0885ms total)
T0590 001:667 JLINK_IsHalted()  returns FALSE (0001ms, 0885ms total)
T0590 001:670 JLINK_IsHalted()  returns FALSE (0000ms, 0884ms total)
T0590 001:672 JLINK_IsHalted()  returns FALSE (0000ms, 0884ms total)
T0590 001:675 JLINK_IsHalted()  returns FALSE (0000ms, 0884ms total)
T0590 001:678 JLINK_IsHalted()  returns FALSE (0000ms, 0884ms total)
T0590 001:680 JLINK_IsHalted()  returns FALSE (0001ms, 0885ms total)
T0590 001:682 JLINK_IsHalted()  returns FALSE (0001ms, 0885ms total)
T0590 001:685 JLINK_IsHalted()  returns FALSE (0000ms, 0884ms total)
T0590 001:688 JLINK_IsHalted()  returns FALSE (0001ms, 0885ms total)
T0590 001:691 JLINK_IsHalted()  returns FALSE (0001ms, 0885ms total)
T0590 001:693 JLINK_IsHalted() -- CPU_ReadMem(2 bytes @ 0x20000000)  returns TRUE (0005ms, 0889ms total)
T0590 001:698 JLINK_ReadReg(R15 (PC))  returns 0x20000000 (0000ms, 0884ms total)
T0590 001:698 JLINK_ClrBPEx(BPHandle = 0x0000000E)  returns 0x00 (0000ms, 0884ms total)
T0590 001:698 JLINK_ReadReg(R0)  returns 0x00000000 (0000ms, 0884ms total)
T0590 001:698 JLINK_WriteMem(0x20000164, 0x0400 Bytes, ...) - Data: 07 22 13 43 C3 83 C1 F3 46 01 80 F8 20 10 80 F8 ... -- CPU_WriteMem(1024 bytes @ 0x20000164)  returns 0x400 (0014ms, 0898ms total)
T0590 001:712 JLINK_WriteReg(R0, 0x08002800)  returns 0x00 (0000ms, 0898ms total)
T0590 001:712 JLINK_WriteReg(R1, 0x00000400)  returns 0x00 (0000ms, 0898ms total)
T0590 001:712 JLINK_WriteReg(R2, 0x20000164)  returns 0x00 (0000ms, 0898ms total)
T0590 001:712 JLINK_WriteReg(R3, 0x00000000)  returns 0x00 (0000ms, 0898ms total)
T0590 001:712 JLINK_WriteReg(R4, 0x00000000)  returns 0x00 (0000ms, 0898ms total)
T0590 001:712 JLINK_WriteReg(R5, 0x00000000)  returns 0x00 (0000ms, 0898ms total)
T0590 001:712 JLINK_WriteReg(R6, 0x00000000)  returns 0x00 (0000ms, 0898ms total)
T0590 001:712 JLINK_WriteReg(R7, 0x00000000)  returns 0x00 (0000ms, 0898ms total)
T0590 001:712 JLINK_WriteReg(R8, 0x00000000)  returns 0x00 (0000ms, 0898ms total)
T0590 001:712 JLINK_WriteReg(R9, 0x20000160)  returns 0x00 (0000ms, 0898ms total)
T0590 001:712 JLINK_WriteReg(R10, 0x00000000)  returns 0x00 (0000ms, 0898ms total)
T0590 001:712 JLINK_WriteReg(R11, 0x00000000)  returns 0x00 (0000ms, 0898ms total)
T0590 001:712 JLINK_WriteReg(R12, 0x00000000)  returns 0x00 (0000ms, 0898ms total)
T0590 001:712 JLINK_WriteReg(R13 (SP), 0x20001000)  returns 0x00 (0000ms, 0898ms total)
T0590 001:712 JLINK_WriteReg(R14, 0x20000001)  returns 0x00 (0000ms, 0898ms total)
T0590 001:712 JLINK_WriteReg(R15 (PC), 0x200000F4)  returns 0x00 (0000ms, 0898ms total)
T0590 001:712 JLINK_WriteReg(XPSR, 0x01000000)  returns 0x00 (0000ms, 0898ms total)
T0590 001:712 JLINK_WriteReg(MSP, 0x20001000)  returns 0x00 (0000ms, 0898ms total)
T0590 001:712 JLINK_WriteReg(PSP, 0x20001000)  returns 0x00 (0000ms, 0898ms total)
T0590 001:712 JLINK_WriteReg(CFBP, 0x00000000)  returns 0x00 (0000ms, 0898ms total)
T0590 001:712 JLINK_SetBPEx(Addr = 0x20000000, Type = 0xFFFFFFF2)  returns 0x0000000F (0000ms, 0898ms total)
T0590 001:712 JLINK_Go() (0003ms, 0901ms total)
T0590 001:715 JLINK_IsHalted()  returns FALSE (0001ms, 0902ms total)
T0590 001:747 JLINK_IsHalted() -- CPU_ReadMem(2 bytes @ 0x20000000)  returns TRUE (0005ms, 0906ms total)
T0590 001:752 JLINK_ReadReg(R15 (PC))  returns 0x20000000 (0000ms, 0901ms total)
T0590 001:752 JLINK_ClrBPEx(BPHandle = 0x0000000F)  returns 0x00 (0000ms, 0901ms total)
T0590 001:752 JLINK_ReadReg(R0)  returns 0x00000000 (0000ms, 0901ms total)
T0590 001:752 JLINK_WriteMem(0x20000164, 0x0400 Bytes, ...) - Data: 70 BD 08 B5 00 20 00 90 68 46 FF F7 E8 FF 08 B1 ... -- CPU_WriteMem(1024 bytes @ 0x20000164)  returns 0x400 (0013ms, 0914ms total)
T0590 001:765 JLINK_WriteReg(R0, 0x08002C00)  returns 0x00 (0000ms, 0914ms total)
T0590 001:765 JLINK_WriteReg(R1, 0x00000400)  returns 0x00 (0000ms, 0914ms total)
T0590 001:765 JLINK_WriteReg(R2, 0x20000164)  returns 0x00 (0000ms, 0914ms total)
T0590 001:765 JLINK_WriteReg(R3, 0x00000000)  returns 0x00 (0000ms, 0914ms total)
T0590 001:765 JLINK_WriteReg(R4, 0x00000000)  returns 0x00 (0000ms, 0914ms total)
T0590 001:765 JLINK_WriteReg(R5, 0x00000000)  returns 0x00 (0000ms, 0914ms total)
T0590 001:765 JLINK_WriteReg(R6, 0x00000000)  returns 0x00 (0000ms, 0914ms total)
T0590 001:765 JLINK_WriteReg(R7, 0x00000000)  returns 0x00 (0000ms, 0914ms total)
T0590 001:765 JLINK_WriteReg(R8, 0x00000000)  returns 0x00 (0000ms, 0914ms total)
T0590 001:765 JLINK_WriteReg(R9, 0x20000160)  returns 0x00 (0000ms, 0914ms total)
T0590 001:765 JLINK_WriteReg(R10, 0x00000000)  returns 0x00 (0000ms, 0914ms total)
T0590 001:765 JLINK_WriteReg(R11, 0x00000000)  returns 0x00 (0000ms, 0914ms total)
T0590 001:765 JLINK_WriteReg(R12, 0x00000000)  returns 0x00 (0000ms, 0914ms total)
T0590 001:765 JLINK_WriteReg(R13 (SP), 0x20001000)  returns 0x00 (0001ms, 0915ms total)
T0590 001:766 JLINK_WriteReg(R14, 0x20000001)  returns 0x00 (0000ms, 0915ms total)
T0590 001:766 JLINK_WriteReg(R15 (PC), 0x200000F4)  returns 0x00 (0000ms, 0915ms total)
T0590 001:766 JLINK_WriteReg(XPSR, 0x01000000)  returns 0x00 (0000ms, 0915ms total)
T0590 001:766 JLINK_WriteReg(MSP, 0x20001000)  returns 0x00 (0000ms, 0915ms total)
T0590 001:766 JLINK_WriteReg(PSP, 0x20001000)  returns 0x00 (0000ms, 0915ms total)
T0590 001:766 JLINK_WriteReg(CFBP, 0x00000000)  returns 0x00 (0000ms, 0915ms total)
T0590 001:766 JLINK_SetBPEx(Addr = 0x20000000, Type = 0xFFFFFFF2)  returns 0x00000010 (0000ms, 0915ms total)
T0590 001:766 JLINK_Go() (0003ms, 0918ms total)
T0590 001:769 JLINK_IsHalted()  returns FALSE (0000ms, 0918ms total)
T0590 001:771 JLINK_IsHalted()  returns FALSE (0000ms, 0918ms total)
T0590 001:774 JLINK_IsHalted()  returns FALSE (0000ms, 0918ms total)
T0590 001:776 JLINK_IsHalted()  returns FALSE (0000ms, 0918ms total)
T0590 001:778 JLINK_IsHalted()  returns FALSE (0000ms, 0918ms total)
